Freq.	V(vout)
1.00000000000000e+000	1.00005067689201e+001,-7.66932462219478e-006
1.02329299228075e+000	1.00005067689203e+001,-7.84796614111705e-006
1.04712854805090e+000	1.00005067689205e+001,-8.03076875610653e-006
1.07151930523761e+000	1.00005067689207e+001,-8.21782939033386e-006
1.09647819614318e+000	1.00005067689209e+001,-8.40924722671645e-006
1.12201845430196e+000	1.00005067689212e+001,-8.60512375721872e-006
1.14815362149688e+000	1.00005067689214e+001,-8.80556283884360e-006
1.17489755493953e+000	1.00005067689217e+001,-9.01067074574876e-006
1.20226443461741e+000	1.00005067689220e+001,-9.22055623052974e-006
1.23026877081238e+000	1.00005067689223e+001,-9.43533057559328e-006
1.25892541179417e+000	1.00005067689226e+001,-9.65510765809498e-006
1.28824955169313e+000	1.00005067689229e+001,-9.88000400538412e-006
1.31825673855641e+000	1.00005067689232e+001,-1.01101388630573e-005
1.34896288259165e+000	1.00005067689236e+001,-1.03456342488577e-005
1.38038426460288e+000	1.00005067689240e+001,-1.05866150278366e-005
1.41253754462275e+000	1.00005067689244e+001,-1.08332089703458e-005
1.44543977074593e+000	1.00005067689248e+001,-1.10855468241610e-005
1.47910838816821e+000	1.00005067689252e+001,-1.13437623801485e-005
1.51356124843621e+000	1.00005067689256e+001,-1.16079925505587e-005
1.54881661891248e+000	1.00005067689261e+001,-1.18783774313984e-005
1.58489319246111e+000	1.00005067689266e+001,-1.21550603845738e-005
1.62181009735893e+000	1.00005067689271e+001,-1.24381881119428e-005
1.65958690743756e+000	1.00005067689276e+001,-1.27279107313007e-005
1.69824365246174e+000	1.00005067689282e+001,-1.30243818580080e-005
1.73780082874937e+000	1.00005067689288e+001,-1.33277586845784e-005
1.77827941003892e+000	1.00005067689294e+001,-1.36382020638568e-005
1.81970085860998e+000	1.00005067689300e+001,-1.39558765999106e-005
1.86208713666287e+000	1.00005067689307e+001,-1.42809507260470e-005
1.90546071796325e+000	1.00005067689314e+001,-1.46135968018065e-005
1.94984459975804e+000	1.00005067689321e+001,-1.49539911980522e-005
1.99526231496888e+000	1.00005067689329e+001,-1.53023144006298e-005
2.04173794466953e+000	1.00005067689337e+001,-1.56587510914266e-005
2.08929613085404e+000	1.00005067689346e+001,-1.60234902596768e-005
2.13796208950223e+000	1.00005067689355e+001,-1.63967252934185e-005
2.18776162394955e+000	1.00005067689364e+001,-1.67786540903634e-005
2.23872113856834e+000	1.00005067689374e+001,-1.71694791507109e-005
2.29086765276777e+000	1.00005067689384e+001,-1.75694076947383e-005
2.34422881531992e+000	1.00005067689395e+001,-1.79786517722260e-005
2.39883291901949e+000	1.00005067689406e+001,-1.83974283688057e-005
2.45470891568503e+000	1.00005067689417e+001,-1.88259595268020e-005
2.51188643150958e+000	1.00005067689430e+001,-1.92644724575147e-005
2.57039578276886e+000	1.00005067689442e+001,-1.97131996655366e-005
2.63026799189538e+000	1.00005067689456e+001,-2.01723790730312e-005
2.69153480392691e+000	1.00005067689470e+001,-2.06422541420561e-005
2.75422870333816e+000	1.00005067689485e+001,-2.11230740089373e-005
2.81838293126445e+000	1.00005067689500e+001,-2.16150936090137e-005
2.88403150312660e+000	1.00005067689516e+001,-2.21185738189341e-005
2.95120922666638e+000	1.00005067689533e+001,-2.26337815868655e-005
3.01995172040201e+000	1.00005067689551e+001,-2.31609900871298e-005
3.09029543251359e+000	1.00005067689569e+001,-2.37004788501360e-005
3.16227766016837e+000	1.00005067689589e+001,-2.42525339197731e-005
3.23593656929628e+000	1.00005067689609e+001,-2.48174480061518e-005
3.31131121482591e+000	1.00005067689630e+001,-2.53955206304069e-005
3.38844156139202e+000	1.00005067689653e+001,-2.59870582989025e-005
3.46736850452531e+000	1.00005067689676e+001,-2.65923746456295e-005
3.54813389233575e+000	1.00005067689700e+001,-2.72117906240593e-005
3.63078054770101e+000	1.00005067689726e+001,-2.78456346529293e-005
3.71535229097172e+000	1.00005067689753e+001,-2.84942428068337e-005
3.80189396320560e+000	1.00005067689781e+001,-2.91579589835458e-005
3.89045144994280e+000	1.00005067689810e+001,-2.98371350991410e-005
3.98107170553496e+000	1.00005067689841e+001,-3.05321312549267e-005
4.07380277804112e+000	1.00005067689873e+001,-3.12433159516793e-005
4.16869383470335e+000	1.00005067689907e+001,-3.19710662671956e-005
4.26579518801592e+000	1.00005067689942e+001,-3.27157680690893e-005
4.36515832240165e+000	1.00005067689979e+001,-3.34778162029984e-005
4.46683592150962e+000	1.00005067690018e+001,-3.42576147163300e-005
4.57088189614874e+000	1.00005067690059e+001,-3.50555770730822e-005
4.67735141287197e+000	1.00005067690101e+001,-3.58721263572803e-005
4.78630092322637e+000	1.00005067690146e+001,-3.67076955215876e-005
4.89778819368445e+000	1.00005067690192e+001,-3.75627275905121e-005
5.01187233627271e+000	1.00005067690241e+001,-3.84376759110034e-005
5.12861383991364e+000	1.00005067690292e+001,-3.93330043999409e-005
5.24807460249771e+000	1.00005067690345e+001,-4.02491877684840e-005
5.37031796370252e+000	1.00005067690401e+001,-4.11867117883551e-005
5.49540873857623e+000	1.00005067690460e+001,-4.21460735495564e-005
5.62341325190348e+000	1.00005067690521e+001,-4.31277817166686e-005
5.75439937337156e+000	1.00005067690586e+001,-4.41323568032345e-005
5.88843655355588e+000	1.00005067690653e+001,-4.51603314461210e-005
6.02559586074356e+000	1.00005067690724e+001,-4.62122507004610e-005
6.16595001861481e+000	1.00005067690797e+001,-4.72886722956172e-005
6.30957344480192e+000	1.00005067690875e+001,-4.83901669801057e-005
6.45654229034654e+000	1.00005067690956e+001,-4.95173187627817e-005
6.60693448007594e+000	1.00005067691040e+001,-5.06707252852871e-005
6.76082975391980e+000	1.00005067691129e+001,-5.18509980979256e-005
6.91830970918935e+000	1.00005067691222e+001,-5.30587629995700e-005
7.07945784384136e+000	1.00005067691319e+001,-5.42946603573416e-005
7.24435960074988e+000	1.00005067691421e+001,-5.55593454642720e-005
7.41310241300916e+000	1.00005067691528e+001,-5.68534888644137e-005
7.58577575029182e+000	1.00005067691639e+001,-5.81777767456120e-005
7.76247116628690e+000	1.00005067691756e+001,-5.95329112489695e-005
7.94328234724279e+000	1.00005067691879e+001,-6.09196108904780e-005
8.12830516164097e+000	1.00005067692007e+001,-6.23386109185907e-005
8.31763771102669e+000	1.00005067692142e+001,-6.37906636999931e-005
8.51138038202374e+000	1.00005067692282e+001,-6.52765391396266e-005
8.70963589956078e+000	1.00005067692429e+001,-6.67970250592170e-005
8.91250938133743e+000	1.00005067692584e+001,-6.83529276507216e-005
9.12010839355907e+000	1.00005067692745e+001,-6.99450718603168e-005
9.33254300796988e+000	1.00005067692914e+001,-7.15743018822053e-005
9.54992586021433e+000	1.00005067693091e+001,-7.32414815470405e-005
9.77237220955808e+000	1.00005067693277e+001,-7.49474948067594e-005
9.99999999999997e+000	1.00005067693471e+001,-7.66932462266245e-005
1.02329299228075e+001	1.00005067693674e+001,-7.84796614230050e-005
1.04712854805090e+001	1.00005067693887e+001,-8.03076875740198e-005
1.07151930523760e+001	1.00005067694110e+001,-8.21782939176889e-005
1.09647819614318e+001	1.00005067694343e+001,-8.40924722826380e-005
1.12201845430196e+001	1.00005067694588e+001,-8.60512375865894e-005
1.14815362149688e+001	1.00005067694843e+001,-8.80556284143967e-005
1.17489755493953e+001	1.00005067695111e+001,-9.01067074815575e-005
1.20226443461741e+001	1.00005067695392e+001,-9.22055623274786e-005
1.23026877081238e+001	1.00005067695686e+001,-9.43533057773257e-005
1.25892541179416e+001	1.00005067695994e+001,-9.65510765955177e-005
1.28824955169313e+001	1.00005067696316e+001,-9.88000400819011e-005
1.31825673855640e+001	1.00005067696653e+001,-1.01101388652088e-004
1.34896288259165e+001	1.00005067697006e+001,-1.03456342518923e-004
1.38038426460288e+001	1.00005067697376e+001,-1.05866150302997e-004
1.41253754462275e+001	1.00005067697764e+001,-1.08332089727045e-004
1.44543977074592e+001	1.00005067698169e+001,-1.10855468265254e-004
1.47910838816820e+001	1.00005067698594e+001,-1.13437623829583e-004
1.51356124843620e+001	1.00005067699039e+001,-1.16079925523045e-004
1.54881661891248e+001	1.00005067699504e+001,-1.18783774337552e-004
1.58489319246111e+001	1.00005067699992e+001,-1.21550603877068e-004
1.62181009735892e+001	1.00005067700503e+001,-1.24381881157427e-004
1.65958690743755e+001	1.00005067701037e+001,-1.27279107360700e-004
1.69824365246174e+001	1.00005067701597e+001,-1.30243818618807e-004
1.73780082874937e+001	1.00005067702183e+001,-1.33277586886532e-004
1.77827941003892e+001	1.00005067702797e+001,-1.36382020686287e-004
1.81970085860998e+001	1.00005067703440e+001,-1.39558766043370e-004
1.86208713666286e+001	1.00005067704113e+001,-1.42809507311719e-004
1.90546071796324e+001	1.00005067704818e+001,-1.46135968069995e-004
1.94984459975804e+001	1.00005067705556e+001,-1.49539912049064e-004
1.99526231496887e+001	1.00005067706329e+001,-1.53023144058519e-004
2.04173794466952e+001	1.00005067707138e+001,-1.56587510973512e-004
2.08929613085403e+001	1.00005067707985e+001,-1.60234902668815e-004
2.13796208950222e+001	1.00005067708873e+001,-1.63967253022340e-004
2.18776162394954e+001	1.00005067709802e+001,-1.67786540996105e-004
2.23872113856833e+001	1.00005067710775e+001,-1.71694791592656e-004
2.29086765276776e+001	1.00005067711794e+001,-1.75694077045236e-004
2.34422881531991e+001	1.00005067712860e+001,-1.79786517843143e-004
2.39883291901948e+001	1.00005067713978e+001,-1.83974283808379e-004
2.45470891568502e+001	1.00005067715147e+001,-1.88259595386701e-004
2.51188643150957e+001	1.00005067716372e+001,-1.92644724700718e-004
2.57039578276885e+001	1.00005067717655e+001,-1.97131996785377e-004
2.63026799189537e+001	1.00005067718998e+001,-2.01723790878237e-004
2.69153480392690e+001	1.00005067720404e+001,-2.06422541588072e-004
2.75422870333815e+001	1.00005067721877e+001,-2.11230740250144e-004
2.81838293126444e+001	1.00005067723419e+001,-2.16150936267804e-004
2.88403150312659e+001	1.00005067725034e+001,-2.21185738365816e-004
2.95120922666637e+001	1.00005067726724e+001,-2.26337816078835e-004
3.01995172040200e+001	1.00005067728495e+001,-2.31609901108080e-004
3.09029543251358e+001	1.00005067730349e+001,-2.37004788741035e-004
3.16227766016837e+001	1.00005067732290e+001,-2.42525339466831e-004
3.23593656929627e+001	1.00005067734323e+001,-2.48174480330575e-004
3.31131121482590e+001	1.00005067736451e+001,-2.53955206589463e-004
3.38844156139201e+001	1.00005067738680e+001,-2.59870583296845e-004
3.46736850452530e+001	1.00005067741014e+001,-2.65923746794005e-004
3.54813389233574e+001	1.00005067743458e+001,-2.72117906590543e-004
3.63078054770100e+001	1.00005067746017e+001,-2.78456346914604e-004
3.71535229097171e+001	1.00005067748697e+001,-2.84942428452563e-004
3.80189396320559e+001	1.00005067751503e+001,-2.91579590269042e-004
3.89045144994279e+001	1.00005067754441e+001,-2.98371351425014e-004
3.98107170553495e+001	1.00005067757518e+001,-3.05321313033207e-004
4.07380277804111e+001	1.00005067760739e+001,-3.12433160045116e-004
4.16869383470333e+001	1.00005067764113e+001,-3.19710663256283e-004
4.26579518801591e+001	1.00005067767646e+001,-3.27157681295362e-004
4.36515832240164e+001	1.00005067771345e+001,-3.34778162693817e-004
4.46683592150961e+001	1.00005067775218e+001,-3.42576147884690e-004
4.57088189614873e+001	1.00005067779274e+001,-3.50555771462810e-004
4.67735141287196e+001	1.00005067783521e+001,-3.58721264365892e-004
4.78630092322636e+001	1.00005067787968e+001,-3.67076956059774e-004
4.89778819368444e+001	1.00005067792625e+001,-3.75627276818643e-004
5.01187233627270e+001	1.00005067797501e+001,-3.84376760123400e-004
5.12861383991362e+001	1.00005067802607e+001,-3.93330045064886e-004
5.24807460249770e+001	1.00005067807954e+001,-4.02491878833907e-004
5.37031796370250e+001	1.00005067813553e+001,-4.11867119130679e-004
5.49540873857622e+001	1.00005067819415e+001,-4.21460736787020e-004
5.62341325190346e+001	1.00005067825554e+001,-4.31277818538795e-004
5.75439937337154e+001	1.00005067831982e+001,-4.41323569536134e-004
5.88843655355586e+001	1.00005067838713e+001,-4.51603316092271e-004
6.02559586074355e+001	1.00005067845762e+001,-4.62122508710925e-004
6.16595001861479e+001	1.00005067853142e+001,-4.72886724838785e-004
6.30957344480190e+001	1.00005067860871e+001,-4.83901671743343e-004
6.45654229034652e+001	1.00005067868963e+001,-4.95173189727569e-004
6.60693448007593e+001	1.00005067877437e+001,-5.06707255152115e-004
6.76082975391978e+001	1.00005067886311e+001,-5.18509983426910e-004
6.91830970918933e+001	1.00005067895602e+001,-5.30587632606116e-004
7.07945784384134e+001	1.00005067905332e+001,-5.42946606325904e-004
7.24435960074986e+001	1.00005067915520e+001,-5.55593457591295e-004
7.41310241300914e+001	1.00005067926188e+001,-5.68534891856091e-004
7.58577575029180e+001	1.00005067937359e+001,-5.81777770880053e-004
7.76247116628688e+001	1.00005067949056e+001,-5.95329116153378e-004
7.94328234724277e+001	1.00005067961305e+001,-6.09196112861485e-004
8.12830516164095e+001	1.00005067974131e+001,-6.23386113386285e-004
8.31763771102667e+001	1.00005067987561e+001,-6.37906641541548e-004
8.51138038202372e+001	1.00005068001624e+001,-6.52765396240028e-004
8.70963589956076e+001	1.00005068016350e+001,-6.67970255835683e-004
8.91250938133741e+001	1.00005068031770e+001,-6.83529282054609e-004
9.12010839355905e+001	1.00005068047917e+001,-6.99450724617162e-004
9.33254300796986e+001	1.00005068064825e+001,-7.15743025262568e-004
9.54992586021431e+001	1.00005068082530e+001,-7.32414822336900e-004
9.77237220955805e+001	1.00005068101069e+001,-7.49474955500293e-004
9.99999999999995e+001	1.00005068120482e+001,-7.66932470158461e-004
1.02329299228075e+002	1.00005068140809e+001,-7.84796622676889e-004
1.04712854805089e+002	1.00005068162095e+001,-8.03076884734261e-004
1.07151930523760e+002	1.00005068184384e+001,-8.21782948880535e-004
1.09647819614318e+002	1.00005068207723e+001,-8.40924733237709e-004
1.12201845430196e+002	1.00005068232162e+001,-8.60512387093622e-004
1.14815362149688e+002	1.00005068257753e+001,-8.80556296025987e-004
1.17489755493952e+002	1.00005068284551e+001,-9.01067087581792e-004
1.20226443461741e+002	1.00005068312611e+001,-9.22055636887528e-004
1.23026877081237e+002	1.00005068341993e+001,-9.43533072420528e-004
1.25892541179416e+002	1.00005068372760e+001,-9.65510781639915e-004
1.28824955169313e+002	1.00005068404977e+001,-9.88000417658743e-004
1.31825673855640e+002	1.00005068438713e+001,-1.01101390451126e-003
1.34896288259165e+002	1.00005068474038e+001,-1.03456344453612e-003
1.38038426460288e+002	1.00005068511029e+001,-1.05866152384299e-003
1.41253754462275e+002	1.00005068549762e+001,-1.08332091951790e-003
1.44543977074592e+002	1.00005068590321e+001,-1.10855470641574e-003
1.47910838816820e+002	1.00005068632792e+001,-1.13437626379431e-003
1.51356124843620e+002	1.00005068677264e+001,-1.16079928255231e-003
1.54881661891247e+002	1.00005068723832e+001,-1.18783777252861e-003
1.58489319246110e+002	1.00005068772595e+001,-1.21550607010614e-003
1.62181009735892e+002	1.00005068823656e+001,-1.24381884514252e-003
1.65958690743755e+002	1.00005068877123e+001,-1.27279110958319e-003
1.69824365246173e+002	1.00005068933110e+001,-1.30243822482861e-003
1.73780082874936e+002	1.00005068991736e+001,-1.33277591013308e-003
1.77827941003891e+002	1.00005069053124e+001,-1.36382025118180e-003
1.81970085860997e+002	1.00005069117406e+001,-1.39558770797258e-003
1.86208713666286e+002	1.00005069184717e+001,-1.42809512394504e-003
1.90546071796323e+002	1.00005069255201e+001,-1.46135973517290e-003
1.94984459975803e+002	1.00005069329006e+001,-1.49539917885965e-003
1.99526231496887e+002	1.00005069406290e+001,-1.53023150318208e-003
2.04173794466952e+002	1.00005069487216e+001,-1.56587517682288e-003
2.08929613085403e+002	1.00005069571956e+001,-1.60234909855262e-003
2.13796208950222e+002	1.00005069660689e+001,-1.63967260723763e-003
2.18776162394954e+002	1.00005069753605e+001,-1.67786549243116e-003
2.23872113856832e+002	1.00005069850899e+001,-1.71694800423483e-003
2.29086765276776e+002	1.00005069952779e+001,-1.75694086533508e-003
2.34422881531991e+002	1.00005070059460e+001,-1.79786527990204e-003
2.39883291901947e+002	1.00005070171169e+001,-1.83974294687016e-003
2.45470891568501e+002	1.00005070288143e+001,-1.88259607042972e-003
2.51188643150956e+002	1.00005070410629e+001,-1.92644737184439e-003
2.57039578276885e+002	1.00005070538888e+001,-1.97132010162164e-003
2.63026799189536e+002	1.00005070673192e+001,-2.01723805219198e-003
2.69153480392690e+002	1.00005070813825e+001,-2.06422556948397e-003
2.75422870333815e+002	1.00005070961086e+001,-2.11230756722539e-003
2.81838293126443e+002	1.00005071115287e+001,-2.16150953925493e-003
2.88403150312659e+002	1.00005071276756e+001,-2.21185757270793e-003
2.95120922666637e+002	1.00005071445834e+001,-2.26337836320563e-003
3.01995172040200e+002	1.00005071622881e+001,-2.31609922789674e-003
3.09029543251357e+002	1.00005071808272e+001,-2.37004811998987e-003
3.16227766016836e+002	1.00005072002399e+001,-2.42525364379919e-003
3.23593656929626e+002	1.00005072205676e+001,-2.48174507025675e-003
3.31131121482589e+002	1.00005072418533e+001,-2.53955235220641e-003
3.38844156139200e+002	1.00005072641422e+001,-2.59870613957230e-003
3.46736850452529e+002	1.00005072874815e+001,-2.65923779646423e-003
3.54813389233573e+002	1.00005073119207e+001,-2.72117941793382e-003
3.63078054770099e+002	1.00005073375118e+001,-2.78456384616175e-003
3.71535229097170e+002	1.00005073643089e+001,-2.84942468880988e-003
3.80189396320558e+002	1.00005073923689e+001,-2.91579633567828e-003
3.89045144994278e+002	1.00005074217513e+001,-2.98371397841868e-003
3.98107170553494e+002	1.00005074525185e+001,-3.05321362769203e-003
4.07380277804110e+002	1.00005074847357e+001,-3.12433213326728e-003
4.16869383470332e+002	1.00005075184713e+001,-3.19710720348520e-003
4.26579518801589e+002	1.00005075537968e+001,-3.27157742482226e-003
4.36515832240163e+002	1.00005075907871e+001,-3.34778228220845e-003
4.46683592150960e+002	1.00005076295207e+001,-3.42576218099746e-003
4.57088189614872e+002	1.00005076700797e+001,-3.50555846737293e-003
4.67735141287195e+002	1.00005077125503e+001,-3.58721345035593e-003
4.78630092322635e+002	1.00005077570224e+001,-3.67077042484929e-003
4.89778819368443e+002	1.00005078035904e+001,-3.75627369424507e-003
5.01187233627268e+002	1.00005078523531e+001,-3.84376859338051e-003
5.12861383991361e+002	1.00005079034140e+001,-3.93330151374897e-003
5.24807460249769e+002	1.00005079568812e+001,-4.02491992747428e-003
5.37031796370249e+002	1.00005080128683e+001,-4.11867241176689e-003
5.49540873857620e+002	1.00005080714940e+001,-4.21460867606804e-003
5.62341325190345e+002	1.00005081328826e+001,-4.31277958683795e-003
5.75439937337152e+002	1.00005081971644e+001,-4.41323719688578e-003
5.88843655355584e+002	1.00005082644757e+001,-4.51603476984033e-003
6.02559586074353e+002	1.00005083349593e+001,-4.62122681141845e-003
6.16595001861477e+002	1.00005084087646e+001,-4.72886909585389e-003
6.30957344480188e+002	1.00005084860483e+001,-4.83901869753389e-003
6.45654229034650e+002	1.00005085669743e+001,-4.95173401878961e-003
6.60693448007591e+002	1.00005086517142e+001,-5.06707482457187e-003
6.76082975391976e+002	1.00005087404478e+001,-5.18510227006629e-003
6.91830970918931e+002	1.00005088333632e+001,-5.30587893548634e-003
7.07945784384132e+002	1.00005089306576e+001,-5.42946885969643e-003
7.24435960074984e+002	1.00005090325374e+001,-5.55593757234257e-003
7.41310241300911e+002	1.00005091392186e+001,-5.68535212908635e-003
7.58577575029177e+002	1.00005092509276e+001,-5.81778114914376e-003
7.76247116628685e+002	1.00005093679012e+001,-5.95329484770801e-003
7.94328234724275e+002	1.00005094903876e+001,-6.09196507820705e-003
8.12830516164092e+002	1.00005096186466e+001,-6.23386536615718e-003
8.31763771102664e+002	1.00005097529503e+001,-6.37907095040243e-003
